! Created Tue May 11 18:49:54 2021
# hz S ma R 50
! 4 Port Network Data from SP1.SP block
! freq  magS11  angS11  magS12  angS12  magS13  angS13  magS14  angS14  
!       magS21  angS21  magS22  angS22  magS23  angS23  magS24  angS24  
!       magS31  angS31  magS32  angS32  magS33  angS33  magS34  angS34  
!       magS41  angS41  magS42  angS42  magS43  angS43  magS44  angS44  
!     
          10000000       0.717370297       -0.199760627       0.0236269371         2.46249681        0.037104261         1.13700246        0.191083498       -0.131419575
                     0.0236269371         2.46249681        0.942514876        -0.26705709      0.00296098129         20.6296156      0.00325807864         19.8096948
                      0.037104261         1.13700246      0.00296098129         20.6296156        0.631665492       -0.179238096        0.149700536      0.00596606258
                      0.191083498       -0.131419575      0.00325807864         19.8096948        0.149700536      0.00596606258        0.617597915       -0.158264401

          20000000       0.717358337       -0.399589187       0.0237105371         4.91164553       0.0371354418         2.27283467        0.191076771       -0.262733247
                     0.0237105371         4.91164553        0.942439457       -0.533974735      0.00348187013         36.8127579      0.00382787168         35.1760996
                     0.0371354418         2.27283467      0.00348187013         36.8127579        0.631645464       -0.358531688        0.149702497       0.0120162566
                      0.191076771       -0.262733247      0.00382787168         35.1760996        0.149702497       0.0120162566         0.61754119       -0.316359202

          30000000       0.717338381       -0.599553737       0.0238491317         7.33450956       0.0371874034         3.40633044        0.191065628       -0.393836654
                     0.0238491317         7.33450956        0.942314358       -0.800616725      0.00420905424          48.026372      0.00462069637         45.5776224
                     0.0371874034         3.40633044      0.00420905424          48.026372        0.631612057       -0.537936376        0.149705821       0.0182330111
                      0.191065628       -0.393836654      0.00462069637         45.5776224        0.149705821       0.0182330111        0.617447042       -0.474118076

          40000000       0.717310395       -0.799722585       0.0240416437         9.71894454       0.0372601359         4.53633183        0.191050171       -0.524628468
                     0.0240416437         9.71894454        0.942140463        -1.06685321      0.00505417959         55.6306733      0.00553751918         52.3756294
                     0.0372601359         4.53633183      0.00505417959         55.6306733        0.631565233       -0.717507972        0.149710587       0.0246954079
                      0.191050171       -0.524628468      0.00553751918         52.3756294        0.149710587       0.0246954079        0.617316051       -0.631381136

          50000000        0.71727433        -1.00016441       0.0242866252         12.0539217       0.0373536253          5.6616932        0.191030541       -0.655011794
                     0.0242866252         12.0539217        0.941918977        -1.33256361      0.00596726549         60.8986346      0.00652151086          56.844524
                     0.0373536253          5.6616932      0.00596726549         60.8986346        0.631504935       -0.897302597        0.149716907        0.031477647
                      0.191030541       -0.655011794      0.00652151086          56.844524        0.149716907        0.031477647        0.617149006       -0.787997868

          60000000       0.717230124        -1.20094836        0.024582311          14.329775       0.0374678532         6.78128531        0.191006914       -0.784895427
                      0.024582311          14.329775          0.9416514        -1.59763924      0.00692140686          64.663863      0.00754130189         59.8194702
                     0.0374678532         6.78128531      0.00692140686          64.663863        0.631431091        -1.07737678        0.149724919       0.0386476692
                      0.191006914       -0.784895427      0.00754130189         59.8194702        0.149724919       0.0386476692        0.616946888       -0.943829766

          70000000       0.717177699        -1.40214421       0.0249266802         16.5383611        0.037602797         7.89399948        0.190979498       -0.914194955
                     0.0249266802         16.5383611        0.941339485        -1.86198554      0.00790171454          67.435928      0.00857884229         61.8115791
                      0.037602797         7.89399948      0.00790171454          67.435928         0.63134361        -1.25778757        0.149734784       0.0462659748
                      0.190979498       -0.914194955      0.00857884229         61.8115791        0.149734784       0.0462659748        0.616710844        -1.09875257

          80000000       0.717116961        -1.60382242       0.0253175219         18.6731333       0.0377584295         8.99875156        0.190948531        -1.04283365
                     0.0253175219         18.6731333        0.940985208        -2.12552391       0.0088995551         69.5286185      0.00962307812         63.1361046
                     0.0377584295         8.99875156       0.0088995551         69.5286185        0.631242387        -1.43859259        0.149746686       0.0543846643
                      0.190948531        -1.04283365      0.00962307812         63.1361046        0.149746686       0.0543846643        0.616442157        -1.25265804

          90000000       0.717047799        -1.80605426       0.0257524998         20.7291351       0.0379347188          10.094486        0.190914274         -1.1707432
                     0.0257524998         20.7291351        0.940590715        -2.38819306      0.00990969077         71.1408884       0.0106668139         63.9933611
                     0.0379347188          10.094486      0.00990969077         71.1408884        0.631127293        -1.61985016        0.149760829       0.0630467159
                      0.190914274         -1.1707432       0.0106668139         63.9933611        0.149760829       0.0630467159        0.616142222        -1.40545532

         100000000       0.716970087        -2.00891191       0.0262292135         22.7029269       0.0381316283         11.1801795         0.19087701        -1.29786416
                     0.0262292135         22.7029269        0.940158282        -2.64994993       0.0109288242          72.403208       0.0117051176         64.5150621
                     0.0381316283         11.1801795       0.0109288242          72.403208        0.630998186        -1.80161936        0.149777427       0.0722855038
                       0.19087701        -1.29786416       0.0117051176         64.5150621        0.149777427       0.0722855038        0.615812511        -1.55707172

         110000000       0.716883678        -2.21246856       0.0267452542         24.5924634       0.0383491173         12.2548449        0.190837039        -1.42414628
                     0.0267452542         24.5924634        0.939690273        -2.91077013       0.0119548249         73.4039621       0.0127344735         64.7907109
                     0.0383491173         12.2548449       0.0119548249         73.4039621        0.630854898        -1.98396011        0.149796709         0.08212455
                      0.190837039        -1.42414628       0.0127344735         64.7907109        0.149796709         0.08212455        0.615454544        -1.70745312

         120000000       0.716788409        -2.41679845        0.027298252         26.3969362       0.0385871406         13.3175345        0.190794674        -1.54954862
                      0.027298252         26.3969362        0.939189093          -3.170648       0.0129862983         74.2048168       0.0137523082         64.8829642
                     0.0385871406         13.3175345       0.0129862983         74.2048168        0.630697244        -2.16693327         0.14981891       0.0925774912
                      0.190794674        -1.54954862       0.0137523082         64.8829642         0.14981891       0.0925774912         0.61506986        -1.85656388

         130000000       0.716684095        -2.62197702       0.0278859153          28.116599       0.0388456491         14.3673431        0.190750237        -1.67403949
                     0.0278859153          28.116599        0.938657152        -3.42959627       0.0140223348          74.849935       0.0147567129          64.836846
                     0.0388456491         14.3673431       0.0140223348          74.849935        0.630525016        -2.35060064        0.149844269        0.103648238
                      0.190750237        -1.67403949       0.0147567129          64.836846        0.149844269        0.103648238         0.61465999        -2.00438639

         140000000       0.716570532        -2.82808097       0.0285060616         29.7525882       0.0391245907         15.4034107        0.190704057        -1.79759628
                     0.0285060616         29.7525882        0.938096825        -3.68764544        0.015062357         75.3716782        0.015746271          64.685451
                     0.0391245907         15.4034107        0.015062357         75.3716782        0.630337983        -2.53502514        0.149873029        0.115331297
                      0.190704057        -1.79759628        0.015746271          64.685451        0.149873029        0.115331297        0.614226431        -2.15092026

         150000000       0.716447494        -3.03518832       0.0291566402         31.3067482       0.0394239104         16.4249251        0.190656468        -1.92020513
                     0.0291566402         31.3067482        0.937510423        -3.94484285       0.0161060238           75.79424       0.0167199469         64.4535814
                     0.0394239104         16.4249251       0.0161060238           75.79424         0.63013589        -2.72027076        0.149905429        0.127612221
                      0.190656468        -1.92020513       0.0167199469         64.4535814        0.149905429        0.127612221        0.613770625        -2.29618126

         160000000       0.716314734        -3.24337853        0.029835748         32.7814704       0.0397435517         17.4311236        0.190607802        -2.04186063
                      0.029835748         32.7814704        0.936900165         -4.2012516       0.0171531671         76.1360277       0.0176770082         64.1601325
                     0.0397435517         17.4311236       0.0171531671         76.1360277        0.629918459        -2.90640274        0.149941707        0.140468157
                      0.190607802        -2.04186063       0.0176770082         64.1601325        0.149941707        0.140468157         0.61329394        -2.44020003

         170000000        0.71617198        -3.45273259       0.0305416385         34.1795482        0.040083457         18.4212943        0.190558392        -2.16256531
                     0.0305416385         34.1795482        0.936268153        -4.45694936       0.0182037498          76.411262       0.0186169707         63.8196987
                      0.040083457         18.4212943       0.0182037498          76.411262        0.629685384        -3.09348754        0.149982098        0.153868457
                      0.190558392        -2.16256531       0.0186169707         63.8196987        0.149982098        0.153868457        0.612797655        -2.58302068

         180000000       0.716018939         -3.6633331       0.0312727261         35.5040517       0.0404435691         19.3947772         0.19050857        -2.28232928
                     0.0312727261         35.5040517        0.935616358        -4.71202704       0.0192578362         76.6310773       0.0195395555         63.4436805
                     0.0404435691         19.3947772       0.0192578362         76.6310773        0.629436332        -3.28159299        0.150026827        0.167775322
                       0.19050857        -2.28232928       0.0195395555         63.4436805        0.150026827        0.167775322        0.612282945        -2.72469927

         190000000       0.715855292        -3.87526434       0.0320275865         36.7582225       0.0408238322         20.3509645        0.190458662        -2.40116973
                     0.0320275865         36.7582225        0.934946604         -4.9665875       0.0203155704          76.804294       0.0204446558         63.0410654
                     0.0408238322         20.3509645       0.0203155704          76.804294        0.629170944        -3.47078832        0.150076117        0.182144456
                      0.190458662        -2.40116973       0.0204446558         63.0410654        0.150076117        0.182144456        0.611750877        -2.86530232

         200000000       0.715680695        -4.08861246        0.032804953         37.9453861       0.0412241933         21.2893009        0.190408991        -2.51911052
                      0.032804953         37.9453861        0.934260559        -5.22074428        0.021377162         76.9379715        0.021332309         62.6189885
                     0.0412241933         21.2893009        0.021377162         76.9379715        0.628888829        -3.66114425        0.150130179        0.196925695
                      0.190408991        -2.51911052        0.021332309         62.6189885        0.150130179        0.196925695        0.611202397        -3.00490521

         210000000       0.715494777        -4.30346549       0.0336037114         39.0688827       0.0416446032         22.2092823        0.190359876        -2.63618182
                     0.0336037114         39.0688827        0.933559732        -5.47462035       0.0224428734         77.0378105       0.0222026736         62.1831439
                     0.0416446032         22.2092823       0.0224428734         77.0378105        0.628589567        -3.85273307         0.15018922        0.212063607
                      0.190359876        -2.63618182       0.0222026736         62.1831439         0.15018922        0.212063607        0.610638333        -3.14359082

         220000000       0.715297142        -4.51991357       0.0344228933         40.1320132       0.0420850184         23.1104554        0.190311629        -2.75241973
                     0.0344228933         40.1320132        0.932845467        -5.72834699        0.023513012         77.1084504       0.0230560088         61.7380911
                     0.0420850184         23.1104554        0.023513012         77.1084504        0.628272706        -4.04562874        0.150253437        0.227498044
                      0.190311629        -2.75241973       0.0230560088         61.7380911        0.150253437        0.227498044        0.610059389        -3.28144805

         230000000       0.715087366        -4.73804898        0.035261668         41.1379977        0.042545402         23.9924163        0.190264559        -2.86786605
                      0.035261668         41.1379977        0.932118944        -5.98206275       0.0245879235          77.153693       0.0238926578         61.2874872
                      0.042545402         23.9924163       0.0245879235          77.153693         0.62793776        -4.23990696        0.150323019        0.243164617
                      0.190264559        -2.86786605       0.0238926578         61.2874872        0.150323019        0.243164617        0.609466146        -3.41857059

         240000000       0.714864994        -4.95796636       0.0361193342         42.0899459       0.0430257255         24.8548083         0.19021897        -2.98256804
                     0.0361193342         42.0899459        0.931381186        -6.23591258       0.0256679864         77.1766716       0.0247130318          60.834265
                     0.0430257255         24.8548083       0.0256679864         77.1766716        0.627584207        -4.43564526         0.15039815        0.258995121
                       0.19021897        -2.98256804       0.0247130318          60.834265         0.15039815        0.258995121        0.608859066        -3.55505574

         250000000       0.714629544        -5.17976286       0.0369953117         42.9908362       0.0435259701         25.6973203        0.190175162        -3.09657833
                     0.0369953117         42.9908362        0.930633057        -6.49004703       0.0267536086         77.1799815       0.0255175977         60.3807717
                     0.0435259701         25.6973203       0.0267536086         77.1799815        0.627211489        -4.63292313        0.150479005        0.274917876
                      0.190175162        -3.09657833       0.0255175977         60.3807717        0.150479005        0.274917876        0.608238493        -3.69100337

         260000000       0.714380502        -5.40353827       0.0378891332         43.8435022        0.044046128         26.5196841         0.19013343         -3.2099548
                     0.0378891332         43.8435022        0.929875272        -6.74462165       0.0278452244         77.1657817       0.0263068659         59.9288782
                      0.044046128         26.5196841       0.0278452244         77.1657817        0.626819009        -4.83182211        0.150565754         0.29085799
                       0.19013343         -3.2099548       0.0263068659         59.9288782        0.150565754         0.29085799        0.607604657        -3.82651499

         270000000       0.714117323        -5.62939524       0.0388004362         44.6506251        0.044586204         27.3216718        0.190094068        -3.32276066
                     0.0388004362         44.6506251          0.9291084        -6.99979648        0.028943292         77.1358738       0.0270813808         59.4800664
                      0.044586204         27.3216718        0.028943292         77.1358738         0.62640613        -5.03242592         0.15065856        0.306737555
                      0.190094068        -3.32276066       0.0270813808         59.4800664         0.15065856        0.306737555         0.60695768        -3.96169295

         280000000       0.713839428        -5.85743947       0.0397289564         45.4147306        0.045146217         28.1030935        0.190057366        -3.43506451
                     0.0397289564         45.4147306        0.928332874        -7.25573569       0.0300482929         77.0917655        0.027841712         59.0354981
                      0.045146217         28.1030935       0.0300482929         77.0917655        0.625972172        -5.23482055        0.150757582        0.322475764
                      0.190057366        -3.43506451        0.027841712         59.0354981        0.150757582        0.322475764         0.60629758        -4.09663977

         290000000       0.713546204        -6.08777993       0.0406745204          46.138189       0.0457262011         28.8637938        0.190023612        -3.54694048
                     0.0406745204          46.138189        0.927548997        -7.51260739       0.0311607298         77.0347202       0.0285884471         58.5960726
                     0.0457262011         28.8637938       0.0311607298         77.0347202        0.625516409        -5.43909441        0.150862974        0.337988959
